
T3290 000:131 SEGGER J-Link V4.68 Log File (0001ms, 0132ms total)
T3290 000:131 DLL Compiled: Apr  6 2013 00:10:46 (0001ms, 0132ms total)
T3290 000:131 Logging started @ 2016-07-14 21:24 (0001ms, 0132ms total)
T3290 000:132 JLINK_SetWarnOutHandler(...) (0000ms, 0132ms total)
T3290 000:132 JLINK_OpenEx(...)
Firmware: J-Link ARM-OB STM32 compiled Aug 22 2012 19:52:04
Hardware: V7.00
S/N: 20090928
Feature(s): RDI,FlashDL,FlashBP,JFlash,GDBFull  returns O.K. (0028ms, 0160ms total)
T3290 000:160 JLINK_SetErrorOutHandler(...) (0000ms, 0160ms total)
T3290 000:160 JLINK_ExecCommand("ProjectFile = "F:\electricity\光电设计大赛\aircraft_code\JLinkSettings.ini"", ...)
                JLINK_AddMirrorAreaEx(Addr = 0x00000000, Size = 0x00000000) (0000ms, 0000ms total)
              Device "UNSPECIFIED" selected (0 KB flash, 0 KB RAM).  returns 0x00 (0002ms, 0162ms total)
T3290 000:162 JLINK_ExecCommand("Device = STM32F407VETx", ...)
                JLINK_AddMirrorAreaEx(Addr = 0x00000000, Size = 0x00000000) (0000ms, 0000ms total)
              Device "UNSPECIFIED" selected (0 KB flash, 0 KB RAM).  returns 0x00 (0001ms, 0163ms total)
T3290 000:163 JLINK_ExecCommand("DisableConnectionTimeout", ...)  returns 0x00 (0000ms, 0163ms total)
T3290 000:163 JLINK_GetHardwareVersion()  returns 0x11170 (0000ms, 0163ms total)
T3290 000:163 JLINK_GetDLLVersion()  returns 46800 (0000ms, 0163ms total)
T3290 000:163 JLINK_GetFirmwareString(...) (0000ms, 0163ms total)
T3290 000:166 JLINK_GetDLLVersion()  returns 46800 (0000ms, 0163ms total)
T3290 000:166 JLINK_GetCompileDateTime() (0000ms, 0163ms total)
T3290 000:167 JLINK_GetFirmwareString(...) (0000ms, 0163ms total)
T3290 000:167 JLINK_GetHardwareVersion()  returns 0x11170 (0000ms, 0163ms total)
T3290 000:170 JLINK_TIF_Select(JLINKARM_TIF_SWD)  returns 0x00 (0003ms, 0166ms total)
T3290 000:173 JLINK_SetSpeed(5000) (0001ms, 0167ms total)
T3290 000:174 JLINK_GetId() >0x108 TIF>Found SWD-DP with ID 0x2BA01477 >0x0D TIF> >0x21 TIF> >0x0D TIF> >0x28 TIF> >0x0D TIF> >0x28 TIF> >0x0D TIF> >0x21 TIF> >0x0D TIF> >0x21 TIF> >0x0D TIF> >0x28 TIF> >0x0D TIF> >0x21 TIF> >0x0D TIF> >0x21 TIF> >0x0D TIF> >0x21 TIF> >0x0D TIF> >0x21 TIF> >0x0D TIF> >0x21 TIF> >0x0D TIF> >0x28 TIF> >0x0D TIF> >0x28 TIF> >0x0D TIF> >0x21 TIF> >0x0D TIF> >0x21 TIF> >0x0D TIF> >0x28 TIF> >0x0D TIF> >0x21 TIF> >0x0D TIF> >0x21 TIF> >0x0D TIF> >0x28 TIF> >0x0D TIF>
 >0x28 TIF> >0x0D TIF> >0x28 TIF> >0x0D TIF> >0x21 TIF> >0x0D TIF> >0x21 TIF> >0x0D TIF> >0x28 TIF> >0x0D TIF> >0x28 TIF> >0x0D TIF> >0x28 TIF> >0x0D TIF> >0x28 TIF> >0x0D TIF> >0x28 TIF> >0x0D TIF> >0x21 TIF> >0x0D TIF> >0x21 TIF> >0x0D TIF> >0x21 TIF>TPIU fitted.ETM fitted. >0x0D TIF> >0x28 TIF> >0x0D TIF> >0x21 TIF> >0x0D TIF> >0x21 TIF> >0x0D TIF> >0x28 TIF> >0x0D TIF> >0x21 TIF> >0x0D TIF> >0x21 TIF>FPUnit: 6 code (BP) slots and 2 literal slots >0x0D TIF> >0x28 TIF> >0x0D TIF> >0x21 TIF> >0x0D TIF>
 >0x21 TIF> >0x0D TIF> >0x28 TIF> >0x0D TIF> >0x28 TIF> >0x0D TIF> >0x28 TIF> >0x0D TIF> >0x21 TIF> >0x0D TIF> >0x21 TIF> >0x0D TIF> >0x28 TIF> >0x0D TIF> >0x21 TIF> >0x0D TIF> >0x21 TIF> >0x0D TIF> >0x28 TIF> >0x0D TIF> >0x21 TIF> >0x0D TIF> >0x21 TIF>Found Cortex-M4 r0p1, Little endian. >0x0D TIF> >0x21 TIF>  returns 0x2BA01477 (0076ms, 0243ms total)
T3290 000:251 JLINK_GetDLLVersion()  returns 46800 (0000ms, 0243ms total)
T3290 000:251 JLINK_CORE_GetFound()  returns 0xE0000FF (0000ms, 0243ms total)
T3290 000:251 JLINK_ReadMem (0xE00FF000, 0x0020 Bytes, ...) -- CPU is running -- CPU_ReadMem(32 bytes @ 0xE00FF000) -- Data:  03 F0 F0 FF 03 20 F0 FF 03 30 F0 FF 03 10 F0 FF ...  returns 0x00 (0002ms, 0245ms total)
T3290 000:253 JLINK_ReadMem (0xE000EFF0, 0x0010 Bytes, ...) -- CPU is running -- CPU_ReadMem(16 bytes @ 0xE000EFF0) -- Data:  0D 00 00 00 E0 00 00 00 05 00 00 00 B1 00 00 00  returns 0x00 (0002ms, 0247ms total)
T3290 000:255 JLINK_ReadMem (0xE000EFD0, 0x0020 Bytes, ...) -- CPU is running -- CPU_ReadMem(32 bytes @ 0xE000EFD0) -- Data:  04 00 00 00 00 00 00 00 00 00 00 00 00 00 00 00 ...  returns 0x00 (0001ms, 0248ms total)
T3290 000:256 JLINK_ReadMem (0xE0001FF0, 0x0010 Bytes, ...) -- CPU is running -- CPU_ReadMem(16 bytes @ 0xE0001FF0) -- Data:  0D 00 00 00 E0 00 00 00 05 00 00 00 B1 00 00 00  returns 0x00 (0002ms, 0250ms total)
T3290 000:258 JLINK_ReadMem (0xE0001FD0, 0x0020 Bytes, ...) -- CPU is running -- CPU_ReadMem(32 bytes @ 0xE0001FD0) -- Data:  04 00 00 00 00 00 00 00 00 00 00 00 00 00 00 00 ...  returns 0x00 (0002ms, 0252ms total)
T3290 000:260 JLINK_ReadMem (0xE0002FF0, 0x0010 Bytes, ...) -- CPU is running -- CPU_ReadMem(16 bytes @ 0xE0002FF0) -- Data:  0D 00 00 00 E0 00 00 00 05 00 00 00 B1 00 00 00  returns 0x00 (0001ms, 0253ms total)
T3290 000:261 JLINK_ReadMem (0xE0002FD0, 0x0020 Bytes, ...) -- CPU is running -- CPU_ReadMem(32 bytes @ 0xE0002FD0) -- Data:  04 00 00 00 00 00 00 00 00 00 00 00 00 00 00 00 ...  returns 0x00 (0002ms, 0255ms total)
T3290 000:263 JLINK_ReadMem (0xE0000FF0, 0x0010 Bytes, ...) -- CPU is running -- CPU_ReadMem(16 bytes @ 0xE0000FF0) -- Data:  0D 00 00 00 E0 00 00 00 05 00 00 00 B1 00 00 00  returns 0x00 (0002ms, 0257ms total)
T3290 000:265 JLINK_ReadMem (0xE0000FD0, 0x0020 Bytes, ...) -- CPU is running -- CPU_ReadMem(32 bytes @ 0xE0000FD0) -- Data:  04 00 00 00 00 00 00 00 00 00 00 00 00 00 00 00 ...  returns 0x00 (0002ms, 0259ms total)
T3290 000:267 JLINK_ReadMem (0xE0040FF0, 0x0010 Bytes, ...) -- CPU is running -- CPU_ReadMem(16 bytes @ 0xE0040FF0) -- Data:  0D 00 00 00 90 00 00 00 05 00 00 00 B1 00 00 00  returns 0x00 (0001ms, 0260ms total)
T3290 000:268 JLINK_ReadMem (0xE0040FD0, 0x0020 Bytes, ...) -- CPU is running -- CPU_ReadMem(32 bytes @ 0xE0040FD0) -- Data:  04 00 00 00 00 00 00 00 00 00 00 00 00 00 00 00 ...  returns 0x00 (0001ms, 0261ms total)
T3290 000:269 JLINK_ReadMem (0xE0041FF0, 0x0010 Bytes, ...) -- CPU is running -- CPU_ReadMem(16 bytes @ 0xE0041FF0) -- Data:  0D 00 00 00 90 00 00 00 05 00 00 00 B1 00 00 00  returns 0x00 (0001ms, 0262ms total)
T3290 000:270 JLINK_ReadMem (0xE0041FD0, 0x0020 Bytes, ...) -- CPU is running -- CPU_ReadMem(32 bytes @ 0xE0041FD0) -- Data:  04 00 00 00 00 00 00 00 00 00 00 00 00 00 00 00 ...  returns 0x00 (0001ms, 0263ms total)
T3290 000:271 JLINK_ReadMemU32(0xE000EF40, 0x0001 Items, ...) -- CPU is running -- CPU_ReadMem(4 bytes @ 0xE000EF40) -- Data:  21 00 11 10  returns 0x01 (0001ms, 0264ms total)
T3290 000:272 JLINK_ReadMemU32(0xE000EF44, 0x0001 Items, ...) -- CPU is running -- CPU_ReadMem(4 bytes @ 0xE000EF44) -- Data:  11 00 00 11  returns 0x01 (0001ms, 0265ms total)
T3290 000:273 JLINK_ReadMemU32(0xE000ED00, 0x0001 Items, ...) -- CPU is running -- CPU_ReadMem(4 bytes @ 0xE000ED00) -- Data:  41 C2 0F 41  returns 0x01 (0001ms, 0266ms total)
T3290 000:274 JLINK_SetResetType(JLINKARM_RESET_TYPE_NORMAL)  returns JLINKARM_RESET_TYPE_NORMAL (0000ms, 0266ms total)
T3290 000:274 JLINK_Reset() -- CPU is running -- CPU_WriteMem(4 bytes @ 0xE000EDF0) -- CPU is running -- CPU_WriteMem(4 bytes @ 0xE000EDFC) >0x35 TIF> -- CPU is running -- CPU_WriteMem(4 bytes @ 0xE000ED0C) -- CPU is running -- CPU_ReadMem(4 bytes @ 0xE000EDF0) -- CPU is running -- CPU_ReadMem(4 bytes @ 0xE000EDF0) -- CPU is running -- CPU_WriteMem(4 bytes @ 0xE000EDF0) -- CPU is running -- CPU_WriteMem(4 bytes @ 0xE000EDFC) -- CPU is running -- CPU_ReadMem(4 bytes @ 0xE000EDF0)
 -- CPU_WriteMem(4 bytes @ 0xE0002000) (0022ms, 0288ms total)
T3290 000:296 JLINK_ReadReg(R15)  returns 0x0800D598 (0000ms, 0288ms total)
T3290 000:296 JLINK_ReadReg(XPSR)  returns 0x01000000 (0000ms, 0288ms total)
T3290 000:296 JLINK_Halt()  returns 0x00 (0000ms, 0288ms total)
T3290 000:296 JLINK_IsHalted()  returns TRUE (0001ms, 0289ms total)
T3290 000:297 JLINK_ReadMemU32(0xE000EDF0, 0x0001 Items, ...) -- CPU_ReadMem(4 bytes @ 0xE000EDF0) -- Data:  03 00 03 00  returns 0x01 (0001ms, 0289ms total)
T3290 000:298 JLINK_WriteU32(0xE000EDF0, 0xA05F0003) -- CPU_WriteMem(4 bytes @ 0xE000EDF0)  returns 0x00 (0001ms, 0290ms total)
T3290 000:299 JLINK_WriteU32(0xE000EDFC, 0x01000000) -- CPU_WriteMem(4 bytes @ 0xE000EDFC)  returns 0x00 (0001ms, 0291ms total)
T3290 000:303 JLINK_GetHWStatus(...)  returns 0x00 (0001ms, 0292ms total)
T3290 000:305 JLINK_GetNumBPUnits(Type = 0xFFFFFF00)  returns 0x06 (0000ms, 0292ms total)
T3290 000:305 JLINK_GetNumBPUnits(Type = 0xF0)  returns 0x2000 (0000ms, 0292ms total)
T3290 000:305 JLINK_GetNumWPUnits()  returns 0x04 (0000ms, 0292ms total)
T3290 000:306 JLINK_GetSpeed()  returns 0xFA0 (0000ms, 0292ms total)
T3290 000:307 JLINK_ReadMemU32(0xE000E004, 0x0001 Items, ...) -- CPU_ReadMem(4 bytes @ 0xE000E004) -- Data:  02 00 00 00  returns 0x01 (0002ms, 0294ms total)
T3290 000:309 JLINK_ReadMemU32(0xE000E004, 0x0001 Items, ...) -- CPU_ReadMem(4 bytes @ 0xE000E004) -- Data:  02 00 00 00  returns 0x01 (0002ms, 0296ms total)
T3290 000:311 JLINK_WriteMem(0xE0001000, 0x001C Bytes, ...) -- Data:  01 00 00 00 00 00 00 00 00 00 00 00 00 00 00 00 ... -- CPU_WriteMem(28 bytes @ 0xE0001000)  returns 0x1C (0002ms, 0298ms total)
T3290 000:313 JLINK_ReadMem (0xE0001000, 0x001C Bytes, ...) -- CPU_ReadMem(28 bytes @ 0xE0001000) -- Data:  01 00 00 40 00 00 00 00 00 00 00 00 00 00 00 00 ...  returns 0x00 (0001ms, 0299ms total)
T3290 000:314 JLINK_ReadReg(R15)  returns 0x0800D598 (0001ms, 0300ms total)
T3290 000:315 JLINK_ReadReg(XPSR)  returns 0x01000000 (0000ms, 0300ms total)
T3290 000:559 JLINK_SetResetType(JLINKARM_RESET_TYPE_NORMAL)  returns JLINKARM_RESET_TYPE_NORMAL (0000ms, 0300ms total)
T3290 000:559 JLINK_Reset() -- CPU_WriteMem(4 bytes @ 0xE000EDF0) -- CPU_WriteMem(4 bytes @ 0xE000EDFC) >0x35 TIF> -- CPU_WriteMem(4 bytes @ 0xE000ED0C) -- CPU_ReadMem(4 bytes @ 0xE000EDF0) -- CPU_ReadMem(4 bytes @ 0xE000EDF0) -- CPU_WriteMem(4 bytes @ 0xE000EDF0) -- CPU_WriteMem(4 bytes @ 0xE000EDFC) -- CPU is running -- CPU_ReadMem(4 bytes @ 0xE000EDF0) -- CPU_WriteMem(4 bytes @ 0xE0002000) (0024ms, 0324ms total)
T3290 000:583 JLINK_ReadReg(R15)  returns 0x0800D598 (0000ms, 0324ms total)
T3290 000:583 JLINK_ReadReg(XPSR)  returns 0x01000000 (0000ms, 0324ms total)
T3290 000:584 JLINK_ReadMem (0x0800D598, 0x003C Bytes, ...) -- CPU_ReadMem(60 bytes @ 0x0800D598) -- Data:  06 48 80 47 06 48 00 47 FE E7 FE E7 FE E7 FE E7 ...  returns 0x00 (0002ms, 0326ms total)
T3290 000:893 JLINK_ReadMem (0x40023800, 0x0008 Bytes, ...) -- CPU_ReadMem(8 bytes @ 0x40023800) -- Data:  83 87 00 00 10 30 00 24  returns 0x00 (0002ms, 0328ms total)
T3290 000:896 JLINK_ReadMem (0x40023808, 0x0004 Bytes, ...) -- CPU_ReadMem(4 bytes @ 0x40023808) -- Data:  00 00 00 00  returns 0x00 (0001ms, 0329ms total)
T3290 000:898 JLINK_ReadMem (0x40023810, 0x0008 Bytes, ...) -- CPU_ReadMem(8 bytes @ 0x40023810) -- Data:  00 00 00 00 00 00 00 00  returns 0x00 (0001ms, 0330ms total)
T3290 000:899 JLINK_ReadMem (0x40023818, 0x0004 Bytes, ...) -- CPU_ReadMem(4 bytes @ 0x40023818) -- Data:  00 00 00 00  returns 0x00 (0001ms, 0331ms total)
T3290 000:900 JLINK_ReadMem (0x40023820, 0x0004 Bytes, ...) -- CPU_ReadMem(4 bytes @ 0x40023820) -- Data:  00 00 00 00  returns 0x00 (0001ms, 0332ms total)
T3290 000:901 JLINK_ReadMem (0x40023824, 0x0004 Bytes, ...) -- CPU_ReadMem(4 bytes @ 0x40023824) -- Data:  00 00 00 00  returns 0x00 (0002ms, 0334ms total)
T3290 000:903 JLINK_ReadMem (0x40023830, 0x0008 Bytes, ...) -- CPU_ReadMem(8 bytes @ 0x40023830) -- Data:  00 00 10 00 00 00 00 00  returns 0x00 (0001ms, 0335ms total)
T3290 000:904 JLINK_ReadMem (0x40023838, 0x0004 Bytes, ...) -- CPU_ReadMem(4 bytes @ 0x40023838) -- Data:  00 00 00 00  returns 0x00 (0002ms, 0337ms total)
T3290 000:906 JLINK_ReadMem (0x40023840, 0x0004 Bytes, ...) -- CPU_ReadMem(4 bytes @ 0x40023840) -- Data:  00 00 00 00  returns 0x00 (0001ms, 0338ms total)
T3290 000:907 JLINK_ReadMem (0x40023844, 0x0004 Bytes, ...) -- CPU_ReadMem(4 bytes @ 0x40023844) -- Data:  00 00 00 00  returns 0x00 (0001ms, 0339ms total)
T3290 000:908 JLINK_ReadMem (0x40023850, 0x0008 Bytes, ...) -- CPU_ReadMem(8 bytes @ 0x40023850) -- Data:  FF 91 67 7E F1 00 00 00  returns 0x00 (0001ms, 0340ms total)
T3290 000:909 JLINK_ReadMem (0x40023858, 0x0004 Bytes, ...) -- CPU_ReadMem(4 bytes @ 0x40023858) -- Data:  01 00 00 00  returns 0x00 (0001ms, 0341ms total)
T3290 000:910 JLINK_ReadMem (0x40023860, 0x0004 Bytes, ...) -- CPU_ReadMem(4 bytes @ 0x40023860) -- Data:  FF C9 FE 36  returns 0x00 (0001ms, 0342ms total)
T3290 000:911 JLINK_ReadMem (0x40023864, 0x0004 Bytes, ...) -- CPU_ReadMem(4 bytes @ 0x40023864) -- Data:  33 5F 07 00  returns 0x00 (0001ms, 0343ms total)
T3290 000:912 JLINK_ReadMem (0x40023870, 0x0004 Bytes, ...) -- CPU_ReadMem(4 bytes @ 0x40023870) -- Data:  00 00 00 00  returns 0x00 (0001ms, 0344ms total)
T3290 000:913 JLINK_ReadMem (0x40023874, 0x0004 Bytes, ...) -- CPU_ReadMem(4 bytes @ 0x40023874) -- Data:  00 00 00 1E  returns 0x00 (0001ms, 0345ms total)
T3290 000:914 JLINK_ReadMem (0x40023880, 0x0004 Bytes, ...) -- CPU_ReadMem(4 bytes @ 0x40023880) -- Data:  00 00 00 00  returns 0x00 (0001ms, 0346ms total)
T3290 000:915 JLINK_ReadMem (0x40023884, 0x0004 Bytes, ...) -- CPU_ReadMem(4 bytes @ 0x40023884) -- Data:  00 30 00 20  returns 0x00 (0002ms, 0348ms total)
T3290 001:050 JLINK_ReadMem (0x40004400, 0x0018 Bytes, ...) -- CPU_ReadMem(24 bytes @ 0x40004400) -- Data:  00 00 00 00 00 00 00 00 00 00 00 00 00 00 00 00 ...  returns 0x00 (0003ms, 0351ms total)
T3290 001:053 JLINK_ReadMem (0x40004418, 0x0004 Bytes, ...) -- CPU_ReadMem(4 bytes @ 0x40004418) -- Data:  00 00 00 00  returns 0x00 (0002ms, 0353ms total)
T3290 002:447 JLINK_ReadMem (0x00000000, 0x004A Bytes, ...) -- CPU_ReadMem(74 bytes @ 0x00000000) -- Data:  10 18 00 20 99 D5 00 08 B5 01 00 08 A3 D5 00 08 ...  returns 0x00 (0003ms, 0356ms total)
T3290 002:471 JLINK_ReadMem (0x00000000, 0x00A1 Bytes, ...) -- CPU_ReadMem(161 bytes @ 0x00000000) -- Data:  10 18 00 20 99 D5 00 08 B5 01 00 08 A3 D5 00 08 ...  returns 0x00 (0002ms, 0358ms total)
T3290 003:848 JLINK_ReadMem (0x20000504, 0x0004 Bytes, ...) -- CPU_ReadMem(4 bytes @ 0x20000504) -- Data:  70 2B 00 00  returns 0x00 (0002ms, 0360ms total)
T3290 003:864 JLINK_ReadMem (0x200005E8, 0x0004 Bytes, ...) -- CPU_ReadMem(4 bytes @ 0x200005E8) -- Data:  02 00 0C 00  returns 0x00 (0001ms, 0362ms total)
T3290 003:875 JLINK_ReadMem (0x20000018, 0x0004 Bytes, ...) -- CPU_ReadMem(4 bytes @ 0x20000018) -- Data:  2D 43 9A 3E  returns 0x00 (0002ms, 0364ms total)
T3290 003:881 JLINK_ReadMem (0x2000001C, 0x0004 Bytes, ...) -- CPU_ReadMem(4 bytes @ 0x2000001C) -- Data:  9A 94 3B C1  returns 0x00 (0002ms, 0366ms total)
T3290 003:886 JLINK_ReadMem (0x20000020, 0x0004 Bytes, ...) -- CPU_ReadMem(4 bytes @ 0x20000020) -- Data:  80 EA 04 42  returns 0x00 (0002ms, 0368ms total)
T3290 003:901 JLINK_ReadMem (0x20000004, 0x0004 Bytes, ...) -- CPU_ReadMem(4 bytes @ 0x20000004) -- Data:  4E 76 25 44  returns 0x00 (0002ms, 0370ms total)
T3290 003:920 JLINK_ReadMem (0x200004A4, 0x0001 Bytes, ...) -- CPU_ReadMem(1 bytes @ 0x200004A4) -- Data:  00  returns 0x00 (0001ms, 0371ms total)
T3290 003:925 JLINK_ReadMem (0x2000046C, 0x0001 Bytes, ...) -- CPU_ReadMem(1 bytes @ 0x2000046C) -- Data:  00  returns 0x00 (0002ms, 0373ms total)
T3290 003:931 JLINK_ReadMem (0x200005A4, 0x0002 Bytes, ...) -- CPU_ReadMem(2 bytes @ 0x200005A4) -- Data:  00 00  returns 0x00 (0001ms, 0374ms total)
T3290 003:936 JLINK_ReadMem (0x200004D0, 0x0004 Bytes, ...) -- CPU_ReadMem(4 bytes @ 0x200004D0) -- Data:  C6 57 CD 41  returns 0x00 (0002ms, 0376ms total)
T3290 003:942 JLINK_ReadMem (0x200004C8, 0x0004 Bytes, ...) -- CPU_ReadMem(4 bytes @ 0x200004C8) -- Data:  00 00 00 00  returns 0x00 (0001ms, 0377ms total)
T3290 003:947 JLINK_ReadMem (0x200004D4, 0x0004 Bytes, ...) -- CPU_ReadMem(4 bytes @ 0x200004D4) -- Data:  04 98 AF 43  returns 0x00 (0001ms, 0378ms total)
T3290 003:959 JLINK_ReadMem (0x200004D8, 0x0004 Bytes, ...) -- CPU_ReadMem(4 bytes @ 0x200004D8) -- Data:  70 E6 4E 43  returns 0x00 (0002ms, 0380ms total)
T3290 003:977 JLINK_ReadMem (0x200004DC, 0x0004 Bytes, ...) -- CPU_ReadMem(4 bytes @ 0x200004DC) -- Data:  C0 BE 72 42  returns 0x00 (0001ms, 0381ms total)
T3290 003:982 JLINK_ReadMem (0x200004CC, 0x0004 Bytes, ...) -- CPU_ReadMem(4 bytes @ 0x200004CC) -- Data:  00 00 FA 43  returns 0x00 (0001ms, 0382ms total)
T3290 004:019 JLINK_ReadMem (0x200004E4, 0x0004 Bytes, ...) -- CPU_ReadMem(4 bytes @ 0x200004E4) -- Data:  80 D5 69 41  returns 0x00 (0002ms, 0384ms total)
T3290 004:060 JLINK_ReadMem (0x20000040, 0x0004 Bytes, ...) -- CPU_ReadMem(4 bytes @ 0x20000040) -- Data:  EA 40 3C 3F  returns 0x00 (0002ms, 0386ms total)
T2F70 004:241 JLINK_SetBPEx(Addr = 0x080001A0, Type = 0xFFFFFFF2)  returns 0x00000001 (0000ms, 0386ms total)
T2F70 004:241 JLINK_SetBPEx(Addr = 0x08005196, Type = 0xFFFFFFF2)  returns 0x00000002 (0000ms, 0386ms total)
T2F70 004:241 JLINK_Go() -- CPU_WriteMem(4 bytes @ 0xE0002008) -- CPU_WriteMem(4 bytes @ 0xE000200C) -- CPU_WriteMem(4 bytes @ 0xE0002010) -- CPU_WriteMem(4 bytes @ 0xE0002014) -- CPU_WriteMem(4 bytes @ 0xE0002018) -- CPU_WriteMem(4 bytes @ 0xE000201C) (0008ms, 0394ms total)
T2F70 004:350 JLINK_IsHalted()  returns TRUE (0004ms, 0398ms total)
T2F70 004:354 JLINK_Halt()  returns 0x00 (0001ms, 0395ms total)
T2F70 004:355 JLINK_IsHalted()  returns TRUE (0000ms, 0395ms total)
T2F70 004:355 JLINK_IsHalted()  returns TRUE (0000ms, 0395ms total)
T2F70 004:355 JLINK_IsHalted()  returns TRUE (0000ms, 0395ms total)
T2F70 004:355 JLINK_ReadReg(R15)  returns 0x080001A0 (0000ms, 0395ms total)
T2F70 004:355 JLINK_ReadReg(XPSR)  returns 0x61000000 (0000ms, 0395ms total)
T2F70 004:355 JLINK_ClrBPEx(BPHandle = 0x00000001)  returns 0x00 (0000ms, 0395ms total)
T2F70 004:355 JLINK_ClrBPEx(BPHandle = 0x00000002)  returns 0x00 (0000ms, 0395ms total)
T2F70 004:355 JLINK_ReadMemU32(0xE000ED30, 0x0001 Items, ...) -- CPU_ReadMem(4 bytes @ 0xE000ED30) -- Data:  03 00 00 00  returns 0x01 (0002ms, 0397ms total)
T2F70 004:357 JLINK_ReadMemU32(0xE0001028, 0x0001 Items, ...) -- CPU_ReadMem(4 bytes @ 0xE0001028) -- Data:  00 00 00 00  returns 0x01 (0002ms, 0399ms total)
T2F70 004:359 JLINK_ReadMemU32(0xE0001038, 0x0001 Items, ...) -- CPU_ReadMem(4 bytes @ 0xE0001038) -- Data:  00 02 00 00  returns 0x01 (0001ms, 0400ms total)
T2F70 004:360 JLINK_ReadMemU32(0xE0001048, 0x0001 Items, ...) -- CPU_ReadMem(4 bytes @ 0xE0001048) -- Data:  00 00 00 00  returns 0x01 (0001ms, 0401ms total)
T2F70 004:361 JLINK_ReadMemU32(0xE0001058, 0x0001 Items, ...) -- CPU_ReadMem(4 bytes @ 0xE0001058) -- Data:  00 00 00 00  returns 0x01 (0001ms, 0402ms total)
T2F70 004:362 JLINK_ReadReg(R0)  returns 0x080001A1 (0000ms, 0402ms total)
T2F70 004:362 JLINK_ReadReg(R1)  returns 0x20001810 (0000ms, 0402ms total)
T2F70 004:362 JLINK_ReadReg(R2)  returns 0x00000000 (0000ms, 0402ms total)
T2F70 004:362 JLINK_ReadReg(R3)  returns 0x0800E169 (0001ms, 0403ms total)
T2F70 004:363 JLINK_ReadReg(R4)  returns 0x0800E280 (0000ms, 0403ms total)
T2F70 004:363 JLINK_ReadReg(R5)  returns 0x0800E280 (0000ms, 0403ms total)
T2F70 004:363 JLINK_ReadReg(R6)  returns 0x00000000 (0000ms, 0403ms total)
T2F70 004:363 JLINK_ReadReg(R7)  returns 0x00000000 (0000ms, 0403ms total)
T2F70 004:363 JLINK_ReadReg(R8)  returns 0x00000000 (0000ms, 0403ms total)
T2F70 004:363 JLINK_ReadReg(R9)  returns 0x00000000 (0000ms, 0403ms total)
T2F70 004:363 JLINK_ReadReg(R10)  returns 0x00000000 (0000ms, 0403ms total)
T2F70 004:363 JLINK_ReadReg(R11)  returns 0x00000000 (0000ms, 0403ms total)
T2F70 004:363 JLINK_ReadReg(R12)  returns 0x00000000 (0000ms, 0403ms total)
T2F70 004:363 JLINK_ReadReg(R13)  returns 0x20001810 (0000ms, 0403ms total)
T2F70 004:363 JLINK_ReadReg(R14)  returns 0x0800DB59 (0000ms, 0403ms total)
T2F70 004:363 JLINK_ReadReg(R15)  returns 0x080001A0 (0001ms, 0404ms total)
T2F70 004:364 JLINK_ReadReg(XPSR)  returns 0x61000000 (0000ms, 0404ms total)
T2F70 004:364 JLINK_ReadReg(MSP)  returns 0x20001810 (0000ms, 0404ms total)
T2F70 004:364 JLINK_ReadReg(PSP)  returns 0x00000000 (0000ms, 0404ms total)
T2F70 004:364 JLINK_ReadReg(CFBP)  returns 0x00000000 (0000ms, 0404ms total)
T2F70 004:364 JLINK_ReadReg(FPSCR)  returns 0x00000000 (0007ms, 0411ms total)
T2F70 004:371 JLINK_ReadReg(FPS0)  returns 0x00000000 (0000ms, 0411ms total)
T2F70 004:371 JLINK_ReadReg(FPS1)  returns 0x00000000 (0001ms, 0412ms total)
T2F70 004:372 JLINK_ReadReg(FPS2)  returns 0x00000000 (0000ms, 0412ms total)
T2F70 004:372 JLINK_ReadReg(FPS3)  returns 0x00000000 (0000ms, 0412ms total)
T2F70 004:372 JLINK_ReadReg(FPS4)  returns 0x00000000 (0000ms, 0412ms total)
T2F70 004:372 JLINK_ReadReg(FPS5)  returns 0x00000000 (0000ms, 0412ms total)
T2F70 004:372 JLINK_ReadReg(FPS6)  returns 0x00000000 (0000ms, 0412ms total)
T2F70 004:372 JLINK_ReadReg(FPS7)  returns 0x00000000 (0000ms, 0412ms total)
T2F70 004:372 JLINK_ReadReg(FPS8)  returns 0x00000000 (0000ms, 0412ms total)
T2F70 004:372 JLINK_ReadReg(FPS9)  returns 0x00000000 (0000ms, 0412ms total)
T2F70 004:372 JLINK_ReadReg(FPS10)  returns 0x00000000 (0000ms, 0412ms total)
T2F70 004:372 JLINK_ReadReg(FPS11)  returns 0x00000000 (0000ms, 0412ms total)
T2F70 004:372 JLINK_ReadReg(FPS12)  returns 0x00000000 (0000ms, 0412ms total)
T2F70 004:372 JLINK_ReadReg(FPS13)  returns 0x00000000 (0001ms, 0413ms total)
T2F70 004:373 JLINK_ReadReg(FPS14)  returns 0x00000000 (0000ms, 0413ms total)
T2F70 004:373 JLINK_ReadReg(FPS15)  returns 0x00000000 (0000ms, 0413ms total)
T2F70 004:373 JLINK_ReadReg(FPS16)  returns 0x00000000 (0000ms, 0413ms total)
T2F70 004:373 JLINK_ReadReg(FPS17)  returns 0x00000000 (0000ms, 0413ms total)
T2F70 004:373 JLINK_ReadReg(FPS18)  returns 0x00000000 (0000ms, 0413ms total)
T2F70 004:373 JLINK_ReadReg(FPS19)  returns 0x00000000 (0000ms, 0413ms total)
T2F70 004:373 JLINK_ReadReg(FPS20)  returns 0x00000000 (0000ms, 0413ms total)
T2F70 004:373 JLINK_ReadReg(FPS21)  returns 0x00000000 (0000ms, 0413ms total)
T2F70 004:373 JLINK_ReadReg(FPS22)  returns 0x00000000 (0000ms, 0413ms total)
T2F70 004:373 JLINK_ReadReg(FPS23)  returns 0x00000000 (0000ms, 0413ms total)
T2F70 004:373 JLINK_ReadReg(FPS24)  returns 0x00000000 (0000ms, 0413ms total)
T2F70 004:373 JLINK_ReadReg(FPS25)  returns 0x00000000 (0001ms, 0414ms total)
T2F70 004:374 JLINK_ReadReg(FPS26)  returns 0x00000000 (0000ms, 0414ms total)
T2F70 004:374 JLINK_ReadReg(FPS27)  returns 0x00000000 (0000ms, 0414ms total)
T2F70 004:374 JLINK_ReadReg(FPS28)  returns 0x00000000 (0000ms, 0414ms total)
T2F70 004:374 JLINK_ReadReg(FPS29)  returns 0x00000000 (0000ms, 0414ms total)
T2F70 004:374 JLINK_ReadReg(FPS30)  returns 0x00000000 (0000ms, 0414ms total)
T2F70 004:374 JLINK_ReadReg(FPS31)  returns 0x00000000 (0000ms, 0414ms total)
T3290 004:378 JLINK_ReadMem (0x20000504, 0x0004 Bytes, ...) -- CPU_ReadMem(4 bytes @ 0x20000504) -- Data:  00 00 00 00  returns 0x00 (0001ms, 0415ms total)
T3290 004:379 JLINK_ReadMem (0x200005E8, 0x0004 Bytes, ...) -- CPU_ReadMem(4 bytes @ 0x200005E8) -- Data:  00 00 00 00  returns 0x00 (0002ms, 0417ms total)
T3290 004:381 JLINK_ReadMem (0x20000018, 0x0004 Bytes, ...) -- CPU_ReadMem(4 bytes @ 0x20000018) -- Data:  00 00 00 00  returns 0x00 (0002ms, 0419ms total)
T3290 004:383 JLINK_ReadMem (0x2000001C, 0x0004 Bytes, ...) -- CPU_ReadMem(4 bytes @ 0x2000001C) -- Data:  00 00 00 00  returns 0x00 (0001ms, 0420ms total)
T3290 004:384 JLINK_ReadMem (0x20000020, 0x0004 Bytes, ...) -- CPU_ReadMem(4 bytes @ 0x20000020) -- Data:  00 00 00 00  returns 0x00 (0001ms, 0421ms total)
T3290 004:385 JLINK_ReadMem (0x20000004, 0x0004 Bytes, ...) -- CPU_ReadMem(4 bytes @ 0x20000004) -- Data:  00 00 00 00  returns 0x00 (0002ms, 0423ms total)
T3290 004:387 JLINK_ReadMem (0x200004A4, 0x0001 Bytes, ...) -- CPU_ReadMem(1 bytes @ 0x200004A4) -- Data:  00  returns 0x00 (0002ms, 0425ms total)
T3290 004:389 JLINK_ReadMem (0x2000046C, 0x0001 Bytes, ...) -- CPU_ReadMem(1 bytes @ 0x2000046C) -- Data:  00  returns 0x00 (0001ms, 0426ms total)
T3290 004:390 JLINK_ReadMem (0x200005A4, 0x0002 Bytes, ...) -- CPU_ReadMem(2 bytes @ 0x200005A4) -- Data:  00 00  returns 0x00 (0001ms, 0427ms total)
T3290 004:391 JLINK_ReadMem (0x200004D0, 0x0004 Bytes, ...) -- CPU_ReadMem(4 bytes @ 0x200004D0) -- Data:  00 00 00 00  returns 0x00 (0001ms, 0428ms total)
T3290 004:392 JLINK_ReadMem (0x200004C8, 0x0004 Bytes, ...) -- CPU_ReadMem(4 bytes @ 0x200004C8) -- Data:  00 00 00 00  returns 0x00 (0002ms, 0430ms total)
T3290 004:394 JLINK_ReadMem (0x200004D4, 0x0004 Bytes, ...) -- CPU_ReadMem(4 bytes @ 0x200004D4) -- Data:  00 00 00 00  returns 0x00 (0001ms, 0431ms total)
T3290 004:395 JLINK_ReadMem (0x200004D8, 0x0004 Bytes, ...) -- CPU_ReadMem(4 bytes @ 0x200004D8) -- Data:  00 00 00 00  returns 0x00 (0002ms, 0433ms total)
T3290 004:397 JLINK_ReadMem (0x200004DC, 0x0004 Bytes, ...) -- CPU_ReadMem(4 bytes @ 0x200004DC) -- Data:  00 00 00 00  returns 0x00 (0002ms, 0435ms total)
T3290 004:399 JLINK_ReadMem (0x200004CC, 0x0004 Bytes, ...) -- CPU_ReadMem(4 bytes @ 0x200004CC) -- Data:  00 00 00 00  returns 0x00 (0001ms, 0436ms total)
T3290 004:401 JLINK_ReadMem (0x200004E4, 0x0004 Bytes, ...) -- CPU_ReadMem(4 bytes @ 0x200004E4) -- Data:  00 00 00 00  returns 0x00 (0002ms, 0438ms total)
T3290 004:406 JLINK_ReadMem (0x40004400, 0x0018 Bytes, ...) -- CPU_ReadMem(24 bytes @ 0x40004400) -- Data:  00 00 00 00 00 00 00 00 00 00 00 00 00 00 00 00 ...  returns 0x00 (0002ms, 0440ms total)
T3290 004:408 JLINK_ReadMem (0x40004418, 0x0004 Bytes, ...) -- CPU_ReadMem(4 bytes @ 0x40004418) -- Data:  00 00 00 00  returns 0x00 (0001ms, 0441ms total)
T3290 004:409 JLINK_ReadMem (0x40023800, 0x0008 Bytes, ...) -- CPU_ReadMem(8 bytes @ 0x40023800) -- Data:  83 87 03 03 19 54 40 07  returns 0x00 (0002ms, 0443ms total)
T3290 004:411 JLINK_ReadMem (0x40023808, 0x0004 Bytes, ...) -- CPU_ReadMem(4 bytes @ 0x40023808) -- Data:  0A 94 00 00  returns 0x00 (0001ms, 0444ms total)
T3290 004:412 JLINK_ReadMem (0x40023810, 0x0008 Bytes, ...) -- CPU_ReadMem(8 bytes @ 0x40023810) -- Data:  00 00 00 00 00 00 00 00  returns 0x00 (0001ms, 0445ms total)
T3290 004:413 JLINK_ReadMem (0x40023818, 0x0004 Bytes, ...) -- CPU_ReadMem(4 bytes @ 0x40023818) -- Data:  00 00 00 00  returns 0x00 (0001ms, 0446ms total)
T3290 004:414 JLINK_ReadMem (0x40023820, 0x0004 Bytes, ...) -- CPU_ReadMem(4 bytes @ 0x40023820) -- Data:  00 00 00 00  returns 0x00 (0001ms, 0447ms total)
T3290 004:415 JLINK_ReadMem (0x40023824, 0x0004 Bytes, ...) -- CPU_ReadMem(4 bytes @ 0x40023824) -- Data:  00 00 00 00  returns 0x00 (0001ms, 0448ms total)
T3290 004:416 JLINK_ReadMem (0x40023830, 0x0008 Bytes, ...) -- CPU_ReadMem(8 bytes @ 0x40023830) -- Data:  00 00 10 00 00 00 00 00  returns 0x00 (0001ms, 0449ms total)
T3290 004:417 JLINK_ReadMem (0x40023838, 0x0004 Bytes, ...) -- CPU_ReadMem(4 bytes @ 0x40023838) -- Data:  00 00 00 00  returns 0x00 (0000ms, 0449ms total)
T3290 004:418 JLINK_ReadMem (0x40023840, 0x0004 Bytes, ...) -- CPU_ReadMem(4 bytes @ 0x40023840) -- Data:  00 00 00 10  returns 0x00 (0001ms, 0450ms total)
T3290 004:419 JLINK_ReadMem (0x40023844, 0x0004 Bytes, ...) -- CPU_ReadMem(4 bytes @ 0x40023844) -- Data:  00 00 00 00  returns 0x00 (0000ms, 0450ms total)
T3290 004:420 JLINK_ReadMem (0x40023850, 0x0008 Bytes, ...) -- CPU_ReadMem(8 bytes @ 0x40023850) -- Data:  FF 91 67 7E F1 00 00 00  returns 0x00 (0001ms, 0452ms total)
T3290 004:421 JLINK_ReadMem (0x40023858, 0x0004 Bytes, ...) -- CPU_ReadMem(4 bytes @ 0x40023858) -- Data:  01 00 00 00  returns 0x00 (0001ms, 0453ms total)
T3290 004:422 JLINK_ReadMem (0x40023860, 0x0004 Bytes, ...) -- CPU_ReadMem(4 bytes @ 0x40023860) -- Data:  FF C9 FE 36  returns 0x00 (0001ms, 0454ms total)
T3290 004:423 JLINK_ReadMem (0x40023864, 0x0004 Bytes, ...) -- CPU_ReadMem(4 bytes @ 0x40023864) -- Data:  33 5F 07 00  returns 0x00 (0001ms, 0455ms total)
T3290 004:425 JLINK_ReadMem (0x40023870, 0x0004 Bytes, ...) -- CPU_ReadMem(4 bytes @ 0x40023870) -- Data:  00 00 00 00  returns 0x00 (0001ms, 0456ms total)
T3290 004:426 JLINK_ReadMem (0x40023874, 0x0004 Bytes, ...) -- CPU_ReadMem(4 bytes @ 0x40023874) -- Data:  00 00 00 1E  returns 0x00 (0001ms, 0457ms total)
T3290 004:427 JLINK_ReadMem (0x40023880, 0x0004 Bytes, ...) -- CPU_ReadMem(4 bytes @ 0x40023880) -- Data:  00 00 00 00  returns 0x00 (0001ms, 0458ms total)
T3290 004:428 JLINK_ReadMem (0x40023884, 0x0004 Bytes, ...) -- CPU_ReadMem(4 bytes @ 0x40023884) -- Data:  00 30 00 20  returns 0x00 (0002ms, 0460ms total)
T3290 004:434 JLINK_ReadMem (0x080001A0, 0x003C Bytes, ...) -- CPU_ReadMem(128 bytes @ 0x08000180) -- Updating DA cache (128 bytes @ 0x08000180) -- Read from DA cache (60 bytes @ 0x080001A0) -- Data:  00 F0 44 F9 02 49 08 70 01 E0 00 F0 E8 F8 FC E7 ...  returns 0x00 (0004ms, 0464ms total)
T2F70 031:502 JLINK_SetBPEx(Addr = 0x08005196, Type = 0xFFFFFFF2)  returns 0x00000003 (0001ms, 0465ms total)
T2F70 031:503 JLINK_Go() -- CPU_WriteMem(4 bytes @ 0xE0002008) -- CPU_WriteMem(4 bytes @ 0xE000200C) (0004ms, 0469ms total)
T2F70 031:608 JLINK_IsHalted()  returns FALSE (0001ms, 0470ms total)
T2F70 031:710 JLINK_IsHalted()  returns FALSE (0001ms, 0470ms total)
T2F70 031:811 JLINK_IsHalted()  returns FALSE (0001ms, 0470ms total)
T2F70 031:912 JLINK_IsHalted()  returns FALSE (0001ms, 0470ms total)
T2F70 032:014 JLINK_ReadMemU32(0xE0001004, 0x0001 Items, ...) -- CPU is running -- CPU_ReadMem(4 bytes @ 0xE0001004) -- Data:  5A 12 17 05  returns 0x01 (0001ms, 0470ms total)
T3290 032:016 JLINK_ReadMem (0x20000504, 0x0004 Bytes, ...) -- CPU is running -- CPU_ReadMem(4 bytes @ 0x20000504) -- Data:  FE 01 00 00  returns 0x00 (0001ms, 0471ms total)
T3290 032:017 JLINK_ReadMem (0x200005E8, 0x0004 Bytes, ...) -- CPU is running -- CPU_ReadMem(4 bytes @ 0x200005E8) -- Data:  00 00 00 00  returns 0x00 (0001ms, 0472ms total)
T3290 032:019 JLINK_ReadMem (0x20000018, 0x0004 Bytes, ...) -- CPU is running -- CPU_ReadMem(4 bytes @ 0x20000018) -- Data:  00 00 00 00  returns 0x00 (0000ms, 0472ms total)
T3290 032:020 JLINK_ReadMem (0x2000001C, 0x0004 Bytes, ...) -- CPU is running -- CPU_ReadMem(4 bytes @ 0x2000001C) -- Data:  00 00 00 00  returns 0x00 (0001ms, 0473ms total)
T3290 032:021 JLINK_ReadMem (0x20000020, 0x0004 Bytes, ...) -- CPU is running -- CPU_ReadMem(4 bytes @ 0x20000020) -- Data:  00 00 00 00  returns 0x00 (0001ms, 0474ms total)
T3290 032:022 JLINK_ReadMem (0x20000004, 0x0004 Bytes, ...) -- CPU is running -- CPU_ReadMem(4 bytes @ 0x20000004) -- Data:  00 00 00 00  returns 0x00 (0001ms, 0475ms total)
T3290 032:023 JLINK_ReadMem (0x200004A4, 0x0001 Bytes, ...) -- CPU is running -- CPU_ReadMem(1 bytes @ 0x200004A4) -- Data:  00  returns 0x00 (0001ms, 0476ms total)
T3290 032:024 JLINK_ReadMem (0x2000046C, 0x0001 Bytes, ...) -- CPU is running -- CPU_ReadMem(1 bytes @ 0x2000046C) -- Data:  00  returns 0x00 (0001ms, 0477ms total)
T3290 032:025 JLINK_ReadMem (0x200005A4, 0x0002 Bytes, ...) -- CPU is running -- CPU_ReadMem(2 bytes @ 0x200005A4) -- Data:  00 00  returns 0x00 (0001ms, 0478ms total)
T3290 032:026 JLINK_ReadMem (0x200004D0, 0x0004 Bytes, ...) -- CPU is running -- CPU_ReadMem(4 bytes @ 0x200004D0) -- Data:  00 00 00 00  returns 0x00 (0001ms, 0479ms total)
T3290 032:027 JLINK_ReadMem (0x200004C8, 0x0004 Bytes, ...) -- CPU is running -- CPU_ReadMem(4 bytes @ 0x200004C8) -- Data:  00 00 00 00  returns 0x00 (0001ms, 0480ms total)
T3290 032:028 JLINK_ReadMem (0x200004D4, 0x0004 Bytes, ...) -- CPU is running -- CPU_ReadMem(4 bytes @ 0x200004D4) -- Data:  00 00 00 00  returns 0x00 (0001ms, 0481ms total)
T3290 032:030 JLINK_ReadMem (0x200004D8, 0x0004 Bytes, ...) -- CPU is running -- CPU_ReadMem(4 bytes @ 0x200004D8) -- Data:  00 00 00 00  returns 0x00 (0001ms, 0482ms total)
T3290 032:032 JLINK_ReadMem (0x200004DC, 0x0004 Bytes, ...) -- CPU is running -- CPU_ReadMem(4 bytes @ 0x200004DC) -- Data:  00 00 00 00  returns 0x00 (0001ms, 0483ms total)
T3290 032:033 JLINK_ReadMem (0x200004CC, 0x0004 Bytes, ...) -- CPU is running -- CPU_ReadMem(4 bytes @ 0x200004CC) -- Data:  00 00 00 00  returns 0x00 (0001ms, 0484ms total)
T3290 032:034 JLINK_ReadMem (0x200005A4, 0x0002 Bytes, ...) -- CPU is running -- CPU_ReadMem(2 bytes @ 0x200005A4) -- Data:  00 00  returns 0x00 (0001ms, 0485ms total)
T3290 032:035 JLINK_ReadMem (0x200004D0, 0x0004 Bytes, ...) -- CPU is running -- CPU_ReadMem(4 bytes @ 0x200004D0) -- Data:  00 00 00 00  returns 0x00 (0001ms, 0486ms total)
T3290 032:036 JLINK_ReadMem (0x20000020, 0x0004 Bytes, ...) -- CPU is running -- CPU_ReadMem(4 bytes @ 0x20000020) -- Data:  00 00 00 00  returns 0x00 (0001ms, 0487ms total)
T3290 032:038 JLINK_ReadMem (0x200004DC, 0x0004 Bytes, ...) -- CPU is running -- CPU_ReadMem(4 bytes @ 0x200004DC) -- Data:  00 00 00 00  returns 0x00 (0001ms, 0488ms total)
T3290 032:039 JLINK_ReadMem (0x200004E4, 0x0004 Bytes, ...) -- CPU is running -- CPU_ReadMem(4 bytes @ 0x200004E4) -- Data:  00 00 00 00  returns 0x00 (0002ms, 0490ms total)
T3290 032:041 JLINK_ReadMem (0x200005A4, 0x0002 Bytes, ...) -- CPU is running -- CPU_ReadMem(2 bytes @ 0x200005A4) -- Data:  00 00  returns 0x00 (0001ms, 0491ms total)
T3290 032:043 JLINK_ReadMem (0x40004400, 0x0018 Bytes, ...) -- CPU is running -- CPU_ReadMem(24 bytes @ 0x40004400) -- Data:  C0 00 00 00 00 00 00 00 6C 01 00 00 2C 20 00 00 ...  returns 0x00 (0002ms, 0493ms total)
T3290 032:045 JLINK_ReadMem (0x40004418, 0x0004 Bytes, ...) -- CPU is running -- CPU_ReadMem(4 bytes @ 0x40004418) -- Data:  00 00 00 00  returns 0x00 (0001ms, 0494ms total)
T3290 032:085 JLINK_ReadMem (0x40023800, 0x0008 Bytes, ...) -- CPU is running -- CPU_ReadMem(8 bytes @ 0x40023800) -- Data:  83 87 03 03 19 54 40 07  returns 0x00 (0001ms, 0495ms total)
T3290 032:086 JLINK_ReadMem (0x40023808, 0x0004 Bytes, ...) -- CPU is running -- CPU_ReadMem(4 bytes @ 0x40023808) -- Data:  0A 94 00 00  returns 0x00 (0001ms, 0496ms total)
T3290 032:087 JLINK_ReadMem (0x40023810, 0x0008 Bytes, ...) -- CPU is running -- CPU_ReadMem(8 bytes @ 0x40023810) -- Data:  00 00 00 00 00 00 00 00  returns 0x00 (0001ms, 0497ms total)
T3290 032:088 JLINK_ReadMem (0x40023818, 0x0004 Bytes, ...) -- CPU is running -- CPU_ReadMem(4 bytes @ 0x40023818) -- Data:  00 00 00 00  returns 0x00 (0001ms, 0498ms total)
T3290 032:089 JLINK_ReadMem (0x40023820, 0x0004 Bytes, ...) -- CPU is running -- CPU_ReadMem(4 bytes @ 0x40023820) -- Data:  00 00 00 00  returns 0x00 (0001ms, 0499ms total)
T3290 032:090 JLINK_ReadMem (0x40023824, 0x0004 Bytes, ...) -- CPU is running -- CPU_ReadMem(4 bytes @ 0x40023824) -- Data:  00 00 00 00  returns 0x00 (0001ms, 0500ms total)
T3290 032:091 JLINK_ReadMem (0x40023830, 0x0008 Bytes, ...) -- CPU is running -- CPU_ReadMem(8 bytes @ 0x40023830) -- Data:  5F 00 10 00 00 00 00 00  returns 0x00 (0001ms, 0501ms total)
T3290 032:092 JLINK_ReadMem (0x40023838, 0x0004 Bytes, ...) -- CPU is running -- CPU_ReadMem(4 bytes @ 0x40023838) -- Data:  00 00 00 00  returns 0x00 (0001ms, 0502ms total)
T3290 032:093 JLINK_ReadMem (0x40023840, 0x0004 Bytes, ...) -- CPU is running -- CPU_ReadMem(4 bytes @ 0x40023840) -- Data:  0E 00 12 10  returns 0x00 (0001ms, 0503ms total)
T3290 032:094 JLINK_ReadMem (0x40023844, 0x0004 Bytes, ...) -- CPU is running -- CPU_ReadMem(4 bytes @ 0x40023844) -- Data:  03 00 00 00  returns 0x00 (0001ms, 0504ms total)
T3290 032:095 JLINK_ReadMem (0x40023850, 0x0008 Bytes, ...) -- CPU is running -- CPU_ReadMem(8 bytes @ 0x40023850) -- Data:  FF 91 67 7E F1 00 00 00  returns 0x00 (0001ms, 0505ms total)
T3290 032:096 JLINK_ReadMem (0x40023858, 0x0004 Bytes, ...) -- CPU is running -- CPU_ReadMem(4 bytes @ 0x40023858) -- Data:  01 00 00 00  returns 0x00 (0001ms, 0506ms total)
T3290 032:097 JLINK_ReadMem (0x40023860, 0x0004 Bytes, ...) -- CPU is running -- CPU_ReadMem(4 bytes @ 0x40023860) -- Data:  FF C9 FE 36  returns 0x00 (0001ms, 0507ms total)
T3290 032:098 JLINK_ReadMem (0x40023864, 0x0004 Bytes, ...) -- CPU is running -- CPU_ReadMem(4 bytes @ 0x40023864) -- Data:  33 5F 07 00  returns 0x00 (0001ms, 0508ms total)
T3290 032:099 JLINK_ReadMem (0x40023870, 0x0004 Bytes, ...) -- CPU is running -- CPU_ReadMem(4 bytes @ 0x40023870) -- Data:  00 00 00 00  returns 0x00 (0001ms, 0509ms total)
T3290 032:100 JLINK_ReadMem (0x40023874, 0x0004 Bytes, ...) -- CPU is running -- CPU_ReadMem(4 bytes @ 0x40023874) -- Data:  00 00 00 1E  returns 0x00 (0001ms, 0510ms total)
T3290 032:101 JLINK_ReadMem (0x40023880, 0x0004 Bytes, ...) -- CPU is running -- CPU_ReadMem(4 bytes @ 0x40023880) -- Data:  00 00 00 00  returns 0x00 (0001ms, 0511ms total)
T3290 032:102 JLINK_ReadMem (0x40023884, 0x0004 Bytes, ...) -- CPU is running -- CPU_ReadMem(4 bytes @ 0x40023884) -- Data:  00 30 00 20  returns 0x00 (0001ms, 0512ms total)
T2F70 032:106 JLINK_IsHalted()  returns FALSE (0001ms, 0513ms total)
T2F70 032:208 JLINK_IsHalted()  returns FALSE (0001ms, 0513ms total)
T2F70 032:310 JLINK_IsHalted()  returns FALSE (0001ms, 0513ms total)
T2F70 032:412 JLINK_IsHalted()  returns FALSE (0000ms, 0512ms total)
T2F70 032:514 JLINK_IsHalted()  returns FALSE (0001ms, 0513ms total)
T2F70 032:616 JLINK_ReadMemU32(0xE0001004, 0x0001 Items, ...) -- CPU is running -- CPU_ReadMem(4 bytes @ 0xE0001004) -- Data:  36 5A 1E 0B  returns 0x01 (0001ms, 0513ms total)
T3290 032:619 JLINK_ReadMem (0x20000504, 0x0004 Bytes, ...) -- CPU is running -- CPU_ReadMem(4 bytes @ 0x20000504) -- Data:  59 04 00 00  returns 0x00 (0001ms, 0514ms total)
T3290 032:620 JLINK_ReadMem (0x200005E8, 0x0004 Bytes, ...) -- CPU is running -- CPU_ReadMem(4 bytes @ 0x200005E8) -- Data:  00 00 00 00  returns 0x00 (0001ms, 0515ms total)
T3290 032:622 JLINK_ReadMem (0x20000018, 0x0004 Bytes, ...) -- CPU is running -- CPU_ReadMem(4 bytes @ 0x20000018) -- Data:  00 00 00 00  returns 0x00 (0002ms, 0517ms total)
T3290 032:624 JLINK_ReadMem (0x2000001C, 0x0004 Bytes, ...) -- CPU is running -- CPU_ReadMem(4 bytes @ 0x2000001C) -- Data:  00 00 00 00  returns 0x00 (0001ms, 0518ms total)
T3290 032:625 JLINK_ReadMem (0x20000020, 0x0004 Bytes, ...) -- CPU is running -- CPU_ReadMem(4 bytes @ 0x20000020) -- Data:  00 00 00 00  returns 0x00 (0001ms, 0519ms total)
T3290 032:626 JLINK_ReadMem (0x20000004, 0x0004 Bytes, ...) -- CPU is running -- CPU_ReadMem(4 bytes @ 0x20000004) -- Data:  00 00 00 00  returns 0x00 (0001ms, 0520ms total)
T3290 032:627 JLINK_ReadMem (0x200004A4, 0x0001 Bytes, ...) -- CPU is running -- CPU_ReadMem(1 bytes @ 0x200004A4) -- Data:  00  returns 0x00 (0002ms, 0522ms total)
T3290 032:629 JLINK_ReadMem (0x2000046C, 0x0001 Bytes, ...) -- CPU is running -- CPU_ReadMem(1 bytes @ 0x2000046C) -- Data:  00  returns 0x00 (0001ms, 0523ms total)
T3290 032:630 JLINK_ReadMem (0x200005A4, 0x0002 Bytes, ...) -- CPU is running -- CPU_ReadMem(2 bytes @ 0x200005A4) -- Data:  00 00  returns 0x00 (0001ms, 0524ms total)
T3290 032:631 JLINK_ReadMem (0x200004D0, 0x0004 Bytes, ...) -- CPU is running -- CPU_ReadMem(4 bytes @ 0x200004D0) -- Data:  00 00 00 00  returns 0x00 (0001ms, 0525ms total)
T3290 032:632 JLINK_ReadMem (0x200004C8, 0x0004 Bytes, ...) -- CPU is running -- CPU_ReadMem(4 bytes @ 0x200004C8) -- Data:  00 00 00 00  returns 0x00 (0001ms, 0526ms total)
T3290 032:633 JLINK_ReadMem (0x200004D4, 0x0004 Bytes, ...) -- CPU is running -- CPU_ReadMem(4 bytes @ 0x200004D4) -- Data:  00 00 00 00  returns 0x00 (0001ms, 0527ms total)
T3290 032:634 JLINK_ReadMem (0x200004D8, 0x0004 Bytes, ...) -- CPU is running -- CPU_ReadMem(4 bytes @ 0x200004D8) -- Data:  00 00 00 00  returns 0x00 (0002ms, 0529ms total)
T3290 032:637 JLINK_ReadMem (0x200004DC, 0x0004 Bytes, ...) -- CPU is running -- CPU_ReadMem(4 bytes @ 0x200004DC) -- Data:  00 00 00 00  returns 0x00 (0001ms, 0530ms total)
T3290 032:638 JLINK_ReadMem (0x200004CC, 0x0004 Bytes, ...) -- CPU is running -- CPU_ReadMem(4 bytes @ 0x200004CC) -- Data:  00 00 00 00  returns 0x00 (0001ms, 0531ms total)
T3290 032:639 JLINK_ReadMem (0x200005A4, 0x0002 Bytes, ...) -- CPU is running -- CPU_ReadMem(2 bytes @ 0x200005A4) -- Data:  00 00  returns 0x00 (0001ms, 0532ms total)
T3290 032:640 JLINK_ReadMem (0x200004D0, 0x0004 Bytes, ...) -- CPU is running -- CPU_ReadMem(4 bytes @ 0x200004D0) -- Data:  00 00 00 00  returns 0x00 (0001ms, 0533ms total)
T3290 032:641 JLINK_ReadMem (0x20000020, 0x0004 Bytes, ...) -- CPU is running -- CPU_ReadMem(4 bytes @ 0x20000020) -- Data:  00 00 00 00  returns 0x00 (0001ms, 0534ms total)
T3290 032:644 JLINK_ReadMem (0x200004DC, 0x0004 Bytes, ...) -- CPU is running -- CPU_ReadMem(4 bytes @ 0x200004DC) -- Data:  00 00 00 00  returns 0x00 (0001ms, 0535ms total)
T3290 032:645 JLINK_ReadMem (0x200004E4, 0x0004 Bytes, ...) -- CPU is running -- CPU_ReadMem(4 bytes @ 0x200004E4) -- Data:  00 00 00 00  returns 0x00 (0001ms, 0536ms total)
T3290 032:647 JLINK_ReadMem (0x200005A4, 0x0002 Bytes, ...) -- CPU is running -- CPU_ReadMem(2 bytes @ 0x200005A4) -- Data:  00 00  returns 0x00 (0001ms, 0537ms total)
T3290 032:650 JLINK_ReadMem (0x40004400, 0x0018 Bytes, ...) -- CPU is running -- CPU_ReadMem(24 bytes @ 0x40004400) -- Data:  C0 00 00 00 00 00 00 00 6C 01 00 00 2C 20 00 00 ...  returns 0x00 (0001ms, 0538ms total)
T3290 032:651 JLINK_ReadMem (0x40004418, 0x0004 Bytes, ...) -- CPU is running -- CPU_ReadMem(4 bytes @ 0x40004418) -- Data:  00 00 00 00  returns 0x00 (0001ms, 0539ms total)
T3290 032:653 JLINK_ReadMem (0x40023800, 0x0008 Bytes, ...) -- CPU is running -- CPU_ReadMem(8 bytes @ 0x40023800) -- Data:  83 87 03 03 19 54 40 07  returns 0x00 (0001ms, 0540ms total)
T3290 032:654 JLINK_ReadMem (0x40023808, 0x0004 Bytes, ...) -- CPU is running -- CPU_ReadMem(4 bytes @ 0x40023808) -- Data:  0A 94 00 00  returns 0x00 (0001ms, 0541ms total)
T3290 032:655 JLINK_ReadMem (0x40023810, 0x0008 Bytes, ...) -- CPU is running -- CPU_ReadMem(8 bytes @ 0x40023810) -- Data:  00 00 00 00 00 00 00 00  returns 0x00 (0001ms, 0542ms total)
T3290 032:656 JLINK_ReadMem (0x40023818, 0x0004 Bytes, ...) -- CPU is running -- CPU_ReadMem(4 bytes @ 0x40023818) -- Data:  00 00 00 00  returns 0x00 (0001ms, 0543ms total)
T3290 032:657 JLINK_ReadMem (0x40023820, 0x0004 Bytes, ...) -- CPU is running -- CPU_ReadMem(4 bytes @ 0x40023820) -- Data:  00 00 00 00  returns 0x00 (0001ms, 0544ms total)
T3290 032:658 JLINK_ReadMem (0x40023824, 0x0004 Bytes, ...) -- CPU is running -- CPU_ReadMem(4 bytes @ 0x40023824) -- Data:  00 00 00 00  returns 0x00 (0001ms, 0545ms total)
T3290 032:659 JLINK_ReadMem (0x40023830, 0x0008 Bytes, ...) -- CPU is running -- CPU_ReadMem(8 bytes @ 0x40023830) -- Data:  5F 00 10 00 00 00 00 00  returns 0x00 (0001ms, 0546ms total)
T3290 032:660 JLINK_ReadMem (0x40023838, 0x0004 Bytes, ...) -- CPU is running -- CPU_ReadMem(4 bytes @ 0x40023838) -- Data:  00 00 00 00  returns 0x00 (0001ms, 0547ms total)
T3290 032:661 JLINK_ReadMem (0x40023840, 0x0004 Bytes, ...) -- CPU is running -- CPU_ReadMem(4 bytes @ 0x40023840) -- Data:  0E 00 12 10  returns 0x00 (0001ms, 0548ms total)
T3290 032:662 JLINK_ReadMem (0x40023844, 0x0004 Bytes, ...) -- CPU is running -- CPU_ReadMem(4 bytes @ 0x40023844) -- Data:  03 00 00 00  returns 0x00 (0001ms, 0549ms total)
T3290 032:663 JLINK_ReadMem (0x40023850, 0x0008 Bytes, ...) -- CPU is running -- CPU_ReadMem(8 bytes @ 0x40023850) -- Data:  FF 91 67 7E F1 00 00 00  returns 0x00 (0001ms, 0550ms total)
T3290 032:664 JLINK_ReadMem (0x40023858, 0x0004 Bytes, ...) -- CPU is running -- CPU_ReadMem(4 bytes @ 0x40023858) -- Data:  01 00 00 00  returns 0x00 (0001ms, 0551ms total)
T3290 032:665 JLINK_ReadMem (0x40023860, 0x0004 Bytes, ...) -- CPU is running -- CPU_ReadMem(4 bytes @ 0x40023860) -- Data:  FF C9 FE 36  returns 0x00 (0001ms, 0552ms total)
T3290 032:666 JLINK_ReadMem (0x40023864, 0x0004 Bytes, ...) -- CPU is running -- CPU_ReadMem(4 bytes @ 0x40023864) -- Data:  33 5F 07 00  returns 0x00 (0001ms, 0553ms total)
T3290 032:667 JLINK_ReadMem (0x40023870, 0x0004 Bytes, ...) -- CPU is running -- CPU_ReadMem(4 bytes @ 0x40023870) -- Data:  00 00 00 00  returns 0x00 (0001ms, 0554ms total)
T3290 032:668 JLINK_ReadMem (0x40023874, 0x0004 Bytes, ...) -- CPU is running -- CPU_ReadMem(4 bytes @ 0x40023874) -- Data:  00 00 00 1E  returns 0x00 (0001ms, 0555ms total)
T3290 032:669 JLINK_ReadMem (0x40023880, 0x0004 Bytes, ...) -- CPU is running -- CPU_ReadMem(4 bytes @ 0x40023880) -- Data:  00 00 00 00  returns 0x00 (0001ms, 0556ms total)
T3290 032:670 JLINK_ReadMem (0x40023884, 0x0004 Bytes, ...) -- CPU is running -- CPU_ReadMem(4 bytes @ 0x40023884) -- Data:  00 30 00 20  returns 0x00 (0001ms, 0557ms total)
T2F70 032:673 JLINK_IsHalted()  returns FALSE (0001ms, 0558ms total)
T2F70 032:775 JLINK_IsHalted()  returns FALSE (0001ms, 0558ms total)
T2F70 032:877 JLINK_IsHalted()  returns FALSE (0001ms, 0558ms total)
T2F70 032:979 JLINK_IsHalted()  returns FALSE (0001ms, 0558ms total)
T2F70 033:081 JLINK_IsHalted()  returns FALSE (0001ms, 0558ms total)
T2F70 033:183 JLINK_ReadMemU32(0xE0001004, 0x0001 Items, ...) -- CPU is running -- CPU_ReadMem(4 bytes @ 0xE0001004) -- Data:  8B DE CC 10  returns 0x01 (0001ms, 0558ms total)
T3290 033:184 JLINK_ReadMem (0x20000504, 0x0004 Bytes, ...) -- CPU is running -- CPU_ReadMem(4 bytes @ 0x20000504) -- Data:  8F 06 00 00  returns 0x00 (0002ms, 0560ms total)
T3290 033:186 JLINK_ReadMem (0x200005E8, 0x0004 Bytes, ...) -- CPU is running -- CPU_ReadMem(4 bytes @ 0x200005E8) -- Data:  00 00 00 00  returns 0x00 (0001ms, 0561ms total)
T3290 033:188 JLINK_ReadMem (0x20000018, 0x0004 Bytes, ...) -- CPU is running -- CPU_ReadMem(4 bytes @ 0x20000018) -- Data:  00 00 00 00  returns 0x00 (0001ms, 0562ms total)
T3290 033:189 JLINK_ReadMem (0x2000001C, 0x0004 Bytes, ...) -- CPU is running -- CPU_ReadMem(4 bytes @ 0x2000001C) -- Data:  00 00 00 00  returns 0x00 (0001ms, 0563ms total)
T3290 033:190 JLINK_ReadMem (0x20000020, 0x0004 Bytes, ...) -- CPU is running -- CPU_ReadMem(4 bytes @ 0x20000020) -- Data:  00 00 00 00  returns 0x00 (0000ms, 0563ms total)
T3290 033:190 JLINK_ReadMem (0x20000004, 0x0004 Bytes, ...) -- CPU is running -- CPU_ReadMem(4 bytes @ 0x20000004) -- Data:  00 00 00 00  returns 0x00 (0001ms, 0564ms total)
T3290 033:192 JLINK_ReadMem (0x200004A4, 0x0001 Bytes, ...) -- CPU is running -- CPU_ReadMem(1 bytes @ 0x200004A4) -- Data:  00  returns 0x00 (0001ms, 0565ms total)
T3290 033:193 JLINK_ReadMem (0x2000046C, 0x0001 Bytes, ...) -- CPU is running -- CPU_ReadMem(1 bytes @ 0x2000046C) -- Data:  00  returns 0x00 (0001ms, 0566ms total)
T3290 033:194 JLINK_ReadMem (0x200005A4, 0x0002 Bytes, ...) -- CPU is running -- CPU_ReadMem(2 bytes @ 0x200005A4) -- Data:  00 00  returns 0x00 (0001ms, 0567ms total)
T3290 033:195 JLINK_ReadMem (0x200004D0, 0x0004 Bytes, ...) -- CPU is running -- CPU_ReadMem(4 bytes @ 0x200004D0) -- Data:  00 00 00 00  returns 0x00 (0001ms, 0568ms total)
T3290 033:196 JLINK_ReadMem (0x200004C8, 0x0004 Bytes, ...) -- CPU is running -- CPU_ReadMem(4 bytes @ 0x200004C8) -- Data:  00 00 00 00  returns 0x00 (0001ms, 0569ms total)
T3290 033:197 JLINK_ReadMem (0x200004D4, 0x0004 Bytes, ...) -- CPU is running -- CPU_ReadMem(4 bytes @ 0x200004D4) -- Data:  00 00 00 00  returns 0x00 (0001ms, 0570ms total)
T3290 033:199 JLINK_ReadMem (0x200004D8, 0x0004 Bytes, ...) -- CPU is running -- CPU_ReadMem(4 bytes @ 0x200004D8) -- Data:  00 00 00 00  returns 0x00 (0001ms, 0571ms total)
T3290 033:200 JLINK_ReadMem (0x200004DC, 0x0004 Bytes, ...) -- CPU is running -- CPU_ReadMem(4 bytes @ 0x200004DC) -- Data:  00 00 00 00  returns 0x00 (0001ms, 0572ms total)
T3290 033:201 JLINK_ReadMem (0x200004CC, 0x0004 Bytes, ...) -- CPU is running -- CPU_ReadMem(4 bytes @ 0x200004CC) -- Data:  00 00 00 00  returns 0x00 (0001ms, 0573ms total)
T3290 033:202 JLINK_ReadMem (0x200005A4, 0x0002 Bytes, ...) -- CPU is running -- CPU_ReadMem(2 bytes @ 0x200005A4) -- Data:  00 00  returns 0x00 (0001ms, 0574ms total)
T3290 033:203 JLINK_ReadMem (0x200004D0, 0x0004 Bytes, ...) -- CPU is running -- CPU_ReadMem(4 bytes @ 0x200004D0) -- Data:  00 00 00 00  returns 0x00 (0001ms, 0575ms total)
T3290 033:204 JLINK_ReadMem (0x20000020, 0x0004 Bytes, ...) -- CPU is running -- CPU_ReadMem(4 bytes @ 0x20000020) -- Data:  00 00 00 00  returns 0x00 (0001ms, 0576ms total)
T3290 033:207 JLINK_ReadMem (0x200004DC, 0x0004 Bytes, ...) -- CPU is running -- CPU_ReadMem(4 bytes @ 0x200004DC) -- Data:  00 00 00 00  returns 0x00 (0001ms, 0577ms total)
T3290 033:208 JLINK_ReadMem (0x200004E4, 0x0004 Bytes, ...) -- CPU is running -- CPU_ReadMem(4 bytes @ 0x200004E4) -- Data:  00 00 00 00  returns 0x00 (0001ms, 0578ms total)
T3290 033:209 JLINK_ReadMem (0x200005A4, 0x0002 Bytes, ...) -- CPU is running -- CPU_ReadMem(2 bytes @ 0x200005A4) -- Data:  00 00  returns 0x00 (0001ms, 0579ms total)
T3290 033:212 JLINK_ReadMem (0x40004400, 0x0018 Bytes, ...) -- CPU is running -- CPU_ReadMem(24 bytes @ 0x40004400) -- Data:  C0 00 00 00 00 00 00 00 6C 01 00 00 2C 20 00 00 ...  returns 0x00 (0001ms, 0580ms total)
T3290 033:214 JLINK_ReadMem (0x40004418, 0x0004 Bytes, ...) -- CPU is running -- CPU_ReadMem(4 bytes @ 0x40004418) -- Data:  00 00 00 00  returns 0x00 (0001ms, 0581ms total)
T3290 033:215 JLINK_ReadMem (0x40023800, 0x0008 Bytes, ...) -- CPU is running -- CPU_ReadMem(8 bytes @ 0x40023800) -- Data:  83 87 03 03 19 54 40 07  returns 0x00 (0001ms, 0582ms total)
T3290 033:216 JLINK_ReadMem (0x40023808, 0x0004 Bytes, ...) -- CPU is running -- CPU_ReadMem(4 bytes @ 0x40023808) -- Data:  0A 94 00 00  returns 0x00 (0001ms, 0583ms total)
T3290 033:217 JLINK_ReadMem (0x40023810, 0x0008 Bytes, ...) -- CPU is running -- CPU_ReadMem(8 bytes @ 0x40023810) -- Data:  00 00 00 00 00 00 00 00  returns 0x00 (0002ms, 0585ms total)
T3290 033:219 JLINK_ReadMem (0x40023818, 0x0004 Bytes, ...) -- CPU is running -- CPU_ReadMem(4 bytes @ 0x40023818) -- Data:  00 00 00 00  returns 0x00 (0000ms, 0585ms total)
T3290 033:219 JLINK_ReadMem (0x40023820, 0x0004 Bytes, ...) -- CPU is running -- CPU_ReadMem(4 bytes @ 0x40023820) -- Data:  00 00 00 00  returns 0x00 (0001ms, 0586ms total)
T3290 033:220 JLINK_ReadMem (0x40023824, 0x0004 Bytes, ...) -- CPU is running -- CPU_ReadMem(4 bytes @ 0x40023824) -- Data:  00 00 00 00  returns 0x00 (0001ms, 0587ms total)
T3290 033:221 JLINK_ReadMem (0x40023830, 0x0008 Bytes, ...) -- CPU is running -- CPU_ReadMem(8 bytes @ 0x40023830) -- Data:  5F 00 10 00 00 00 00 00  returns 0x00 (0001ms, 0588ms total)
T3290 033:222 JLINK_ReadMem (0x40023838, 0x0004 Bytes, ...) -- CPU is running -- CPU_ReadMem(4 bytes @ 0x40023838) -- Data:  00 00 00 00  returns 0x00 (0001ms, 0589ms total)
